# GHZ S MA R 50
! Frequency(GHz) S11(mag,deg) S21(mag,deg) S12(mag,deg) S22(mag,deg)
0.1 1.00 -13.5 17.35 171.5 0.010 81.4 0.70 -8.89
0.5 0.91 -61.9 14.71 139.3 0.042 56.8 0.59 -39.38
0.9 0.81 -98.1 11.52 116.2 0.059 40.4 0.47 -60.91
1.0 0.79 -106.0 10.86 111.4 0.062 37.2 0.44 -65.59
1.5 0.73 -136.9 8.20 91.9 0.071 25.5 0.33 -83.71
1.9 0.70 -155.7 6.76 79.5 0.075 19.3 0.27 -95.59
2.0 0.69 -159.8 6.48 76.7 0.076 18.0 0.26 -98.43
2.5 0.68 -178.2 5.32 63.8 0.080 12.7 0.21 -111.64
3.0 0.67 166.2 4.50 52.2 0.083 8.4 0.18 -124.59
4.0 0.68 139.9 3.42 30.7 0.091 1.0 0.14 -153.64
5.0 0.70 117.5 2.75 10.7 0.099 -6.0 0.13 172.83
6.0 0.72 97.8 2.28 -8.3 0.108 -13.5 0.15 140.56
7.0 0.75 80.2 1.92 -26.7 0.118 -22.0 0.20 114.24
8.0 0.79 64.2 1.63 -44.4 0.127 -31.2 0.26 93.28
9.0 0.82 49.3 1.39 -61.6 0.135 -41.1 0.33 75.10
10.0 0.85 34.9 1.19 -78.5 0.141 -52.1 0.40 58.79
11.0 0.88 21.5 1.02 -94.7 0.145 -63.1 0.48 44.10
12.0 0.90 9.2 0.88 -110.1 0.148 -74.3 0.54 30.76
13.0 0.92 -2.8 0.77 -125.1 0.151 -85.7 0.60 18.78
14.0 0.93 -13.8 0.68 -139.0 0.152 -96.6 0.65 7.47
15.0 0.94 -22.4 0.58 -150.4 0.146 -105.3 0.71 -2.48
16.0 0.95 -29.8 0.48 -160.6 0.137 -113.2 0.76 -11.45
17.0 0.95 -38.3 0.42 -171.5 0.131 -121.7 0.79 -20.84
18.0 0.95 -47.5 0.37 177.3 0.129 -130.7 0.81 -30.07